!Agilent Technologies,E5071B,MY42404018,A.06.50
!Date: Mon Sep 22 09:19:29 2008
!Data & Calibration Information:
!Freq	S11:SOLT2(ON)	S21:SOLT2(ON)	S12:SOLT2(ON)	S22:SOLT2(ON)
# Hz S dB R 50
300000	-4.818151e+001	9.262802e+001	-4.868574e-004	-2.425292e-001	-3.445196e-002	-8.633841e-001	-4.635576e+001	8.117990e+001
549813	-4.243667e+001	8.141082e+001	-1.221877e-001	-8.985089e-001	8.000022e-002	-5.278554e-001	-4.243848e+001	6.784550e+001
799625	-4.229630e+001	7.952724e+001	-9.847072e-003	-1.331141e+000	-4.695589e-003	-2.022593e+000	-4.387673e+001	6.719951e+001
1049438	-4.039976e+001	7.801186e+001	-1.138304e-002	-1.908098e+000	-1.173731e-002	-2.462259e+000	-4.182805e+001	7.074359e+001
1299250	-3.898635e+001	7.758557e+001	-9.656658e-003	-2.439571e+000	-1.580964e-002	-2.907564e+000	-4.008988e+001	7.370690e+001
1549063	-3.779495e+001	7.764156e+001	-1.042484e-002	-2.969309e+000	-1.099138e-002	-3.447753e+000	-3.859580e+001	7.531837e+001
1798875	-3.670575e+001	7.769194e+001	-6.381811e-003	-3.524775e+000	-1.596063e-002	-3.918000e+000	-3.730272e+001	7.631685e+001
2048688	-3.574136e+001	7.795794e+001	-9.498539e-003	-4.064840e+000	-1.851060e-002	-4.433351e+000	-3.619792e+001	7.683216e+001
2298500	-3.485679e+001	7.805748e+001	-1.098562e-002	-4.619681e+000	-1.523832e-002	-4.933854e+000	-3.520659e+001	7.719986e+001
2548313	-3.404353e+001	7.818151e+001	-9.831237e-003	-5.162087e+000	-1.339366e-002	-5.447834e+000	-3.430537e+001	7.731336e+001
2798125	-3.328526e+001	7.818278e+001	-1.205484e-002	-5.695809e+000	-1.532158e-002	-5.926356e+000	-3.351432e+001	7.729827e+001
3047938	-3.261232e+001	7.807243e+001	-1.685995e-002	-6.221700e+000	-1.622896e-002	-6.449686e+000	-3.277461e+001	7.727030e+001
3297750	-3.196049e+001	7.797053e+001	-1.407220e-002	-6.774943e+000	-1.851960e-002	-6.951430e+000	-3.209275e+001	7.707366e+001
3547563	-3.137492e+001	7.784786e+001	-1.957718e-002	-7.290958e+000	-2.430333e-002	-7.467963e+000	-3.147044e+001	7.688673e+001
3797375	-3.080649e+001	7.761996e+001	-1.600129e-002	-7.833564e+000	-2.204064e-002	-7.979898e+000	-3.088766e+001	7.657035e+001
4047188	-3.028503e+001	7.746736e+001	-1.900659e-002	-8.353367e+000	-2.301386e-002	-8.507724e+000	-3.034727e+001	7.630699e+001
4297000	-2.979114e+001	7.723641e+001	-1.553935e-002	-8.901469e+000	-2.500407e-002	-9.009910e+000	-2.983840e+001	7.604586e+001
4546813	-2.931971e+001	7.696207e+001	-1.950624e-002	-9.403952e+000	-2.272777e-002	-9.512936e+000	-2.936238e+001	7.565202e+001
4796625	-2.887484e+001	7.665363e+001	-2.437708e-002	-9.938216e+000	-2.996914e-002	-1.001404e+001	-2.890898e+001	7.527524e+001
5046438	-2.845772e+001	7.636807e+001	-1.864912e-002	-1.047583e+001	-2.281923e-002	-1.054294e+001	-2.846498e+001	7.487095e+001
5296250	-2.805106e+001	7.602935e+001	-2.876167e-002	-1.099847e+001	-2.532202e-002	-1.108213e+001	-2.805560e+001	7.443695e+001
5546063	-2.766964e+001	7.570321e+001	-2.372673e-002	-1.150498e+001	-2.618706e-002	-1.158712e+001	-2.767998e+001	7.399759e+001
5795875	-2.730375e+001	7.538996e+001	-2.456806e-002	-1.203635e+001	-3.142456e-002	-1.210304e+001	-2.730536e+001	7.357039e+001
6045688	-2.694818e+001	7.500637e+001	-2.712777e-002	-1.256933e+001	-3.136825e-002	-1.259078e+001	-2.694806e+001	7.313965e+001
6295500	-2.661033e+001	7.463201e+001	-2.101928e-002	-1.309949e+001	-3.644706e-002	-1.311483e+001	-2.660930e+001	7.263948e+001
6545313	-2.629407e+001	7.424886e+001	-3.130260e-002	-1.361837e+001	-3.214931e-002	-1.364811e+001	-2.628271e+001	7.218804e+001
6795125	-2.598173e+001	7.390701e+001	-2.956745e-002	-1.412863e+001	-3.558058e-002	-1.416232e+001	-2.597153e+001	7.172204e+001
7044938	-2.567590e+001	7.351904e+001	-3.130782e-002	-1.465386e+001	-3.451212e-002	-1.468521e+001	-2.566754e+001	7.122413e+001
7294750	-2.539387e+001	7.307747e+001	-3.277982e-002	-1.518149e+001	-3.581388e-002	-1.520571e+001	-2.537073e+001	7.071909e+001
7544563	-2.511575e+001	7.275622e+001	-2.981049e-002	-1.569163e+001	-3.710204e-002	-1.573054e+001	-2.510247e+001	7.024337e+001
7794375	-2.484756e+001	7.230192e+001	-3.743531e-002	-1.619006e+001	-3.663535e-002	-1.626510e+001	-2.482958e+001	6.972748e+001
8044188	-2.458493e+001	7.187809e+001	-3.598026e-002	-1.672877e+001	-3.843590e-002	-1.673894e+001	-2.456982e+001	6.922915e+001
8294000	-2.433635e+001	7.146694e+001	-3.642447e-002	-1.723769e+001	-3.949266e-002	-1.725918e+001	-2.431103e+001	6.876448e+001
8543813	-2.409845e+001	7.102465e+001	-3.981761e-002	-1.778004e+001	-3.580470e-002	-1.779565e+001	-2.406619e+001	6.825704e+001
8793625	-2.385967e+001	7.063329e+001	-4.280726e-002	-1.828810e+001	-4.285483e-002	-1.831135e+001	-2.383961e+001	6.771782e+001
9043438	-2.363542e+001	7.018314e+001	-4.091509e-002	-1.879885e+001	-4.521747e-002	-1.881624e+001	-2.360273e+001	6.718094e+001
9293250	-2.340571e+001	6.978934e+001	-4.120815e-002	-1.931974e+001	-4.778269e-002	-1.932899e+001	-2.338530e+001	6.668623e+001
9543063	-2.319210e+001	6.935035e+001	-4.152535e-002	-1.986689e+001	-4.102643e-002	-1.986965e+001	-2.316123e+001	6.615467e+001
9792875	-2.298514e+001	6.896650e+001	-4.360474e-002	-2.034411e+001	-4.787111e-002	-2.038003e+001	-2.295573e+001	6.568573e+001
10042688	-2.278158e+001	6.847093e+001	-4.682140e-002	-2.090818e+001	-5.220293e-002	-2.088595e+001	-2.274898e+001	6.511947e+001
10292500	-2.258911e+001	6.806296e+001	-4.814520e-002	-2.139415e+001	-4.456075e-002	-2.143586e+001	-2.255796e+001	6.466057e+001
10542313	-2.239572e+001	6.761939e+001	-4.918381e-002	-2.191121e+001	-4.755637e-002	-2.192686e+001	-2.236334e+001	6.406079e+001
10792125	-2.221384e+001	6.722585e+001	-5.270774e-002	-2.243160e+001	-5.462800e-002	-2.245746e+001	-2.217714e+001	6.359659e+001
11041938	-2.201990e+001	6.675720e+001	-5.252497e-002	-2.294363e+001	-5.477907e-002	-2.294563e+001	-2.199180e+001	6.305581e+001
11291750	-2.184285e+001	6.635106e+001	-5.461795e-002	-2.347313e+001	-5.445827e-002	-2.346703e+001	-2.181103e+001	6.251778e+001
11541563	-2.167772e+001	6.595808e+001	-5.141205e-002	-2.398593e+001	-5.527791e-002	-2.400875e+001	-2.163767e+001	6.199809e+001
11791375	-2.150572e+001	6.549492e+001	-5.488720e-002	-2.450048e+001	-5.633940e-002	-2.449975e+001	-2.147850e+001	6.147564e+001
12041188	-2.134236e+001	6.502735e+001	-6.356471e-002	-2.499178e+001	-5.879112e-002	-2.504387e+001	-2.130421e+001	6.091558e+001
12291000	-2.117962e+001	6.455536e+001	-6.035852e-002	-2.552852e+001	-6.248381e-002	-2.551954e+001	-2.115557e+001	6.036515e+001
12540813	-2.102827e+001	6.414564e+001	-5.959815e-002	-2.605163e+001	-5.976638e-002	-2.607112e+001	-2.098850e+001	5.989873e+001
12790625	-2.087185e+001	6.368544e+001	-6.418626e-002	-2.656244e+001	-6.284379e-002	-2.656764e+001	-2.083382e+001	5.937005e+001
13040438	-2.072345e+001	6.329115e+001	-6.859715e-002	-2.708770e+001	-6.568176e-002	-2.708639e+001	-2.069397e+001	5.883765e+001
13290250	-2.057934e+001	6.281156e+001	-6.751911e-002	-2.760440e+001	-6.748200e-002	-2.762430e+001	-2.055009e+001	5.825329e+001
13540063	-2.043030e+001	6.235769e+001	-6.732581e-002	-2.811129e+001	-7.402487e-002	-2.811624e+001	-2.040446e+001	5.777726e+001
13789875	-2.029319e+001	6.189501e+001	-6.602044e-002	-2.861746e+001	-6.614286e-002	-2.862269e+001	-2.025937e+001	5.717788e+001
14039688	-2.015568e+001	6.143819e+001	-7.407616e-002	-2.917118e+001	-6.800788e-002	-2.914630e+001	-2.012817e+001	5.661757e+001
14289500	-2.002291e+001	6.106756e+001	-7.367292e-002	-2.966013e+001	-7.610881e-002	-2.965184e+001	-1.999294e+001	5.607562e+001
14539313	-1.989344e+001	6.056460e+001	-7.457983e-002	-3.018158e+001	-7.349945e-002	-3.018705e+001	-1.986620e+001	5.558010e+001
14789125	-1.976495e+001	6.012748e+001	-7.618268e-002	-3.069405e+001	-7.671409e-002	-3.071530e+001	-1.974049e+001	5.506901e+001
15038938	-1.964486e+001	5.967778e+001	-7.763739e-002	-3.121494e+001	-8.232661e-002	-3.119994e+001	-1.961122e+001	5.448942e+001
15288750	-1.951977e+001	5.923845e+001	-7.882040e-002	-3.171425e+001	-7.837864e-002	-3.171548e+001	-1.948585e+001	5.391293e+001
15538563	-1.940067e+001	5.876489e+001	-8.357219e-002	-3.223876e+001	-8.446807e-002	-3.225338e+001	-1.936603e+001	5.344800e+001
15788375	-1.929151e+001	5.837492e+001	-7.557041e-002	-3.276527e+001	-8.701543e-002	-3.277633e+001	-1.925440e+001	5.289470e+001
16038188	-1.917421e+001	5.788229e+001	-8.635866e-002	-3.327104e+001	-8.575532e-002	-3.326764e+001	-1.913871e+001	5.236964e+001
16288000	-1.905755e+001	5.744174e+001	-9.059595e-002	-3.379506e+001	-8.876695e-002	-3.378625e+001	-1.902255e+001	5.180697e+001
16537813	-1.894845e+001	5.696803e+001	-8.629187e-002	-3.430892e+001	-8.661958e-002	-3.430219e+001	-1.891736e+001	5.128355e+001
16787625	-1.884039e+001	5.656101e+001	-8.521596e-002	-3.482869e+001	-8.508662e-002	-3.482221e+001	-1.880902e+001	5.076265e+001
17037438	-1.873759e+001	5.609651e+001	-9.117804e-002	-3.532811e+001	-8.929046e-002	-3.534520e+001	-1.870702e+001	5.018723e+001
17287250	-1.862733e+001	5.565823e+001	-8.570087e-002	-3.584935e+001	-9.120650e-002	-3.583841e+001	-1.860182e+001	4.962831e+001
17537063	-1.853417e+001	5.515334e+001	-9.423076e-002	-3.635457e+001	-9.432324e-002	-3.637214e+001	-1.849932e+001	4.906974e+001
17786875	-1.843436e+001	5.473553e+001	-9.606255e-002	-3.687652e+001	-9.425509e-002	-3.690615e+001	-1.840904e+001	4.853075e+001
18036688	-1.833983e+001	5.427081e+001	-9.665355e-002	-3.739162e+001	-9.923681e-002	-3.738568e+001	-1.830948e+001	4.799895e+001
18286500	-1.823898e+001	5.384599e+001	-1.030192e-001	-3.789562e+001	-9.577190e-002	-3.787857e+001	-1.820666e+001	4.745029e+001
18536313	-1.815068e+001	5.337560e+001	-9.900611e-002	-3.839242e+001	-1.042189e-001	-3.843371e+001	-1.812155e+001	4.688693e+001
18786125	-1.805612e+001	5.292532e+001	-9.615659e-002	-3.892925e+001	-9.903783e-002	-3.893196e+001	-1.802564e+001	4.634225e+001
19035938	-1.796801e+001	5.243449e+001	-9.593674e-002	-3.943606e+001	-1.076224e-001	-3.945070e+001	-1.793882e+001	4.579197e+001
19285750	-1.788527e+001	5.203709e+001	-1.065136e-001	-3.993280e+001	-1.023943e-001	-3.995818e+001	-1.784890e+001	4.523557e+001
19535563	-1.779928e+001	5.153379e+001	-1.027586e-001	-4.046075e+001	-1.100950e-001	-4.047182e+001	-1.776311e+001	4.467794e+001
19785375	-1.771703e+001	5.109609e+001	-1.084749e-001	-4.099006e+001	-1.129010e-001	-4.098827e+001	-1.768292e+001	4.414966e+001
20035188	-1.763041e+001	5.067922e+001	-1.031099e-001	-4.148758e+001	-1.122831e-001	-4.145817e+001	-1.759989e+001	4.357431e+001
20285000	-1.755161e+001	5.025047e+001	-1.085907e-001	-4.199844e+001	-1.125049e-001	-4.199534e+001	-1.752294e+001	4.302848e+001
20534813	-1.747416e+001	4.972671e+001	-1.119965e-001	-4.251841e+001	-1.177138e-001	-4.252984e+001	-1.744924e+001	4.249822e+001
20784625	-1.739554e+001	4.931979e+001	-1.126448e-001	-4.303517e+001	-1.176053e-001	-4.303502e+001	-1.736509e+001	4.192296e+001
21034438	-1.732181e+001	4.891181e+001	-1.121451e-001	-4.353227e+001	-1.164753e-001	-4.355016e+001	-1.728858e+001	4.140698e+001
21284250	-1.724867e+001	4.842215e+001	-1.167595e-001	-4.403963e+001	-1.181759e-001	-4.402527e+001	-1.721365e+001	4.085532e+001
21534063	-1.716546e+001	4.799257e+001	-1.157684e-001	-4.455836e+001	-1.209226e-001	-4.459843e+001	-1.714799e+001	4.026610e+001
21783875	-1.710097e+001	4.753852e+001	-1.197522e-001	-4.507692e+001	-1.205540e-001	-4.507654e+001	-1.706588e+001	3.971304e+001
22033688	-1.703415e+001	4.706094e+001	-1.217491e-001	-4.559192e+001	-1.238852e-001	-4.559071e+001	-1.700193e+001	3.917690e+001
22283500	-1.695682e+001	4.664795e+001	-1.252789e-001	-4.608732e+001	-1.237545e-001	-4.609307e+001	-1.692968e+001	3.861926e+001
22533313	-1.690179e+001	4.614060e+001	-1.231705e-001	-4.658323e+001	-1.262887e-001	-4.661183e+001	-1.687058e+001	3.802448e+001
22783125	-1.683630e+001	4.568175e+001	-1.283301e-001	-4.712388e+001	-1.247402e-001	-4.715796e+001	-1.679910e+001	3.748290e+001
23032938	-1.676293e+001	4.524656e+001	-1.221660e-001	-4.763945e+001	-1.293272e-001	-4.764690e+001	-1.673500e+001	3.692440e+001
23282750	-1.671184e+001	4.480735e+001	-1.278238e-001	-4.817066e+001	-1.358776e-001	-4.814855e+001	-1.667679e+001	3.640357e+001
23532563	-1.664256e+001	4.437228e+001	-1.267413e-001	-4.866758e+001	-1.324589e-001	-4.865225e+001	-1.660932e+001	3.579527e+001
23782375	-1.658390e+001	4.392900e+001	-1.316376e-001	-4.918877e+001	-1.325365e-001	-4.920036e+001	-1.654988e+001	3.529326e+001
24032188	-1.652822e+001	4.348374e+001	-1.356521e-001	-4.969853e+001	-1.348685e-001	-4.970887e+001	-1.649738e+001	3.469866e+001
24282000	-1.646920e+001	4.299057e+001	-1.387533e-001	-5.020027e+001	-1.439342e-001	-5.020799e+001	-1.644392e+001	3.416219e+001
24531813	-1.640900e+001	4.256147e+001	-1.370999e-001	-5.071476e+001	-1.395887e-001	-5.072430e+001	-1.637619e+001	3.357640e+001
24781625	-1.635724e+001	4.213402e+001	-1.351026e-001	-5.120875e+001	-1.389916e-001	-5.122100e+001	-1.632368e+001	3.299171e+001
25031438	-1.630786e+001	4.166392e+001	-1.397197e-001	-5.171824e+001	-1.423914e-001	-5.171402e+001	-1.627036e+001	3.245209e+001
25281250	-1.625341e+001	4.119529e+001	-1.395881e-001	-5.225382e+001	-1.437925e-001	-5.226726e+001	-1.621923e+001	3.186759e+001
25531063	-1.620832e+001	4.075128e+001	-1.454015e-001	-5.276977e+001	-1.479737e-001	-5.276416e+001	-1.617337e+001	3.127770e+001
25780875	-1.615573e+001	4.031840e+001	-1.461482e-001	-5.327405e+001	-1.452861e-001	-5.328251e+001	-1.611876e+001	3.074797e+001
26030688	-1.610558e+001	3.985984e+001	-1.419472e-001	-5.378359e+001	-1.483009e-001	-5.380010e+001	-1.607003e+001	3.018898e+001
26280500	-1.605667e+001	3.941424e+001	-1.441788e-001	-5.432034e+001	-1.482832e-001	-5.433004e+001	-1.602651e+001	2.962580e+001
26530313	-1.600632e+001	3.898645e+001	-1.478400e-001	-5.480997e+001	-1.509294e-001	-5.485062e+001	-1.597875e+001	2.906222e+001
26780125	-1.595928e+001	3.853945e+001	-1.514210e-001	-5.532722e+001	-1.527664e-001	-5.535697e+001	-1.593051e+001	2.846760e+001
27029938	-1.591950e+001	3.807272e+001	-1.483958e-001	-5.584450e+001	-1.509051e-001	-5.587285e+001	-1.588767e+001	2.789907e+001
27279750	-1.587666e+001	3.761975e+001	-1.556958e-001	-5.635797e+001	-1.580591e-001	-5.636626e+001	-1.584526e+001	2.736786e+001
27529563	-1.582784e+001	3.719965e+001	-1.511676e-001	-5.686258e+001	-1.519768e-001	-5.690047e+001	-1.579665e+001	2.679477e+001
27779375	-1.578962e+001	3.672041e+001	-1.575597e-001	-5.734132e+001	-1.546525e-001	-5.740218e+001	-1.575569e+001	2.617129e+001
28029188	-1.575580e+001	3.626881e+001	-1.580661e-001	-5.788671e+001	-1.565914e-001	-5.789621e+001	-1.572254e+001	2.564660e+001
28279000	-1.571190e+001	3.585736e+001	-1.583818e-001	-5.839763e+001	-1.611625e-001	-5.840443e+001	-1.567960e+001	2.506143e+001
28528813	-1.567543e+001	3.540376e+001	-1.532284e-001	-5.889912e+001	-1.614107e-001	-5.891049e+001	-1.564276e+001	2.446262e+001
28778625	-1.563813e+001	3.495210e+001	-1.588286e-001	-5.940068e+001	-1.579132e-001	-5.943905e+001	-1.560175e+001	2.390303e+001
29028438	-1.559815e+001	3.450979e+001	-1.601698e-001	-5.991942e+001	-1.629875e-001	-5.994384e+001	-1.556525e+001	2.334366e+001
29278250	-1.556399e+001	3.407991e+001	-1.628050e-001	-6.043965e+001	-1.631767e-001	-6.047908e+001	-1.553312e+001	2.278131e+001
29528063	-1.552975e+001	3.360279e+001	-1.622679e-001	-6.094413e+001	-1.657230e-001	-6.098774e+001	-1.550218e+001	2.221389e+001
29777875	-1.549635e+001	3.317888e+001	-1.694919e-001	-6.144799e+001	-1.634379e-001	-6.149276e+001	-1.547503e+001	2.164947e+001
30027688	-1.546429e+001	3.273605e+001	-1.663843e-001	-6.197149e+001	-1.671014e-001	-6.199235e+001	-1.543638e+001	2.104789e+001
30277500	-1.543428e+001	3.231090e+001	-1.598458e-001	-6.248060e+001	-1.752632e-001	-6.249721e+001	-1.541492e+001	2.045933e+001
30527313	-1.540544e+001	3.183652e+001	-1.652708e-001	-6.299596e+001	-1.730122e-001	-6.299751e+001	-1.538114e+001	1.987012e+001
30777125	-1.537985e+001	3.137089e+001	-1.677987e-001	-6.351757e+001	-1.739863e-001	-6.351792e+001	-1.535267e+001	1.932253e+001
31026938	-1.534394e+001	3.096640e+001	-1.689170e-001	-6.403818e+001	-1.721807e-001	-6.404523e+001	-1.531859e+001	1.873301e+001
31276750	-1.531922e+001	3.050754e+001	-1.729790e-001	-6.455634e+001	-1.712319e-001	-6.458226e+001	-1.529028e+001	1.816679e+001
31526563	-1.529450e+001	3.010937e+001	-1.701943e-001	-6.507173e+001	-1.740398e-001	-6.507972e+001	-1.526881e+001	1.758573e+001
31776375	-1.526921e+001	2.963152e+001	-1.751670e-001	-6.556633e+001	-1.777957e-001	-6.556625e+001	-1.524361e+001	1.698751e+001
32026188	-1.524598e+001	2.919055e+001	-1.736629e-001	-6.608522e+001	-1.776503e-001	-6.609409e+001	-1.521977e+001	1.643552e+001
32276000	-1.522231e+001	2.878492e+001	-1.708436e-001	-6.658086e+001	-1.768316e-001	-6.661380e+001	-1.519264e+001	1.584201e+001
32525813	-1.518877e+001	2.833968e+001	-1.768000e-001	-6.709833e+001	-1.811867e-001	-6.713158e+001	-1.517382e+001	1.524018e+001
32775625	-1.517732e+001	2.787223e+001	-1.781426e-001	-6.760604e+001	-1.774883e-001	-6.763995e+001	-1.514986e+001	1.465147e+001
33025438	-1.515774e+001	2.743090e+001	-1.797311e-001	-6.811940e+001	-1.794150e-001	-6.813648e+001	-1.513127e+001	1.409667e+001
33275250	-1.513511e+001	2.703452e+001	-1.770521e-001	-6.863409e+001	-1.808280e-001	-6.865125e+001	-1.510271e+001	1.351310e+001
33525063	-1.512147e+001	2.658440e+001	-1.794614e-001	-6.914845e+001	-1.814549e-001	-6.916228e+001	-1.509193e+001	1.292393e+001
33774875	-1.509934e+001	2.614951e+001	-1.812321e-001	-6.964913e+001	-1.794698e-001	-6.968916e+001	-1.507454e+001	1.233568e+001
34024688	-1.508486e+001	2.569642e+001	-1.797378e-001	-7.017219e+001	-1.811071e-001	-7.020570e+001	-1.505628e+001	1.173005e+001
34274500	-1.506367e+001	2.527329e+001	-1.821736e-001	-7.069013e+001	-1.817667e-001	-7.072989e+001	-1.503707e+001	1.114444e+001
34524313	-1.504701e+001	2.481552e+001	-1.805529e-001	-7.121767e+001	-1.847612e-001	-7.124164e+001	-1.502637e+001	1.055874e+001
34774125	-1.503218e+001	2.442105e+001	-1.818410e-001	-7.172420e+001	-1.902954e-001	-7.172738e+001	-1.500859e+001	9.976558e+000
35023938	-1.501929e+001	2.397078e+001	-1.822136e-001	-7.222150e+001	-1.857593e-001	-7.226304e+001	-1.499926e+001	9.368523e+000
35273750	-1.500699e+001	2.353721e+001	-1.856369e-001	-7.274575e+001	-1.870190e-001	-7.275941e+001	-1.498332e+001	8.792322e+000
35523563	-1.499496e+001	2.312487e+001	-1.806038e-001	-7.326872e+001	-1.871834e-001	-7.328913e+001	-1.496826e+001	8.185646e+000
35773375	-1.497798e+001	2.270380e+001	-1.814573e-001	-7.379235e+001	-1.909315e-001	-7.376511e+001	-1.496107e+001	7.569583e+000
36023188	-1.497253e+001	2.222152e+001	-1.858277e-001	-7.428213e+001	-1.915712e-001	-7.431660e+001	-1.495089e+001	6.960601e+000
36273000	-1.496423e+001	2.180892e+001	-1.854402e-001	-7.480495e+001	-1.911870e-001	-7.482155e+001	-1.494446e+001	6.379772e+000
36522813	-1.495943e+001	2.141556e+001	-1.807572e-001	-7.533339e+001	-1.952410e-001	-7.533700e+001	-1.493840e+001	5.767932e+000
36772625	-1.494387e+001	2.096293e+001	-1.849839e-001	-7.586216e+001	-1.943447e-001	-7.586725e+001	-1.492832e+001	5.198076e+000
37022438	-1.494388e+001	2.054340e+001	-1.851205e-001	-7.634621e+001	-1.901665e-001	-7.637928e+001	-1.492366e+001	4.561087e+000
37272250	-1.493465e+001	2.013344e+001	-1.885276e-001	-7.686975e+001	-1.898895e-001	-7.690195e+001	-1.491877e+001	3.955094e+000
37522063	-1.492640e+001	1.969015e+001	-1.850386e-001	-7.736523e+001	-1.931593e-001	-7.743366e+001	-1.491291e+001	3.370514e+000
37771875	-1.492920e+001	1.925549e+001	-1.897852e-001	-7.790471e+001	-1.917634e-001	-7.791635e+001	-1.491007e+001	2.786613e+000
38021688	-1.492349e+001	1.881396e+001	-1.866398e-001	-7.841953e+001	-1.952620e-001	-7.841687e+001	-1.490199e+001	2.160263e+000
38271500	-1.492142e+001	1.838217e+001	-1.862712e-001	-7.893903e+001	-1.950833e-001	-7.894772e+001	-1.490242e+001	1.529470e+000
38521313	-1.492302e+001	1.797111e+001	-1.914312e-001	-7.944642e+001	-1.988131e-001	-7.943951e+001	-1.490000e+001	9.466658e-001
38771125	-1.492109e+001	1.756662e+001	-1.858597e-001	-7.996761e+001	-1.956342e-001	-8.000502e+001	-1.489534e+001	3.187879e-001
39020938	-1.491983e+001	1.714467e+001	-1.879133e-001	-8.047061e+001	-1.919874e-001	-8.051766e+001	-1.490057e+001	-2.554491e-001
