# HZ S MA R 50


10000	 6.557532e-002	 -9.222231e+000	 9.711166e-001	 -5.290264e+000	 9.654506e-001	 -5.154081e+000	 6.661291e-002	 -9.845763e+000	
11556	 6.372366e-002	 -9.920740e+000	 9.724138e-001	 -6.244613e+000	 9.709123e-001	 -6.196370e+000	 6.403929e-002	 -1.103746e+001	
13113	 6.040512e-002	 -1.146315e+001	 9.768366e-001	 -7.543245e+000	 9.738269e-001	 -7.338544e+000	 6.081300e-002	 -1.222976e+001	
14669	 5.882604e-002	 -1.042164e+001	 9.790041e-001	 -8.746106e+000	 9.763753e-001	 -8.505411e+000	 5.930841e-002	 -1.105226e+001	
16225	 5.697217e-002	 -1.522864e+001	 9.814545e-001	 -1.050764e+001	 9.844736e-001	 -8.794177e+000	 6.178910e-002	 -1.268182e+001	
17781	 5.697324e-002	 -6.387207e+000	 9.775566e-001	 -1.103803e+001	 9.755087e-001	 -1.087891e+001	 5.713379e-002	 -6.925710e+000	
19338	 5.720809e-002	 -4.378767e+000	 9.746623e-001	 -1.209310e+001	 9.733366e-001	 -1.193348e+001	 5.712606e-002	 -4.924407e+000	
20894	 5.775789e-002	 -3.115900e+000	 9.721314e-001	 -1.304280e+001	 9.707890e-001	 -1.290774e+001	 5.788361e-002	 -3.564901e+000	
22450	 5.803185e-002	 -2.047414e+000	 9.694981e-001	 -1.397671e+001	 9.684148e-001	 -1.385314e+001	 5.802731e-002	 -2.588526e+000	
24006	 5.908459e-002	 -1.972058e+000	 9.669626e-001	 -1.472346e+001	 9.639587e-001	 -1.469344e+001	 5.960459e-002	 -2.101617e+000	
25563	 5.848677e-002	 -9.156052e-001	 9.652145e-001	 -1.573459e+001	 9.640869e-001	 -1.562347e+001	 5.858817e-002	 -1.046472e+000	
27119	 5.856594e-002	 -3.078873e-001	 9.632698e-001	 -1.659313e+001	 9.626381e-001	 -1.647929e+001	 5.866993e-002	 -6.463605e-001	
28675	 5.865860e-002	 3.711706e-003	 9.615145e-001	 -1.741925e+001	 9.610520e-001	 -1.732496e+001	 5.879258e-002	 -2.323482e-001	
30231	 5.865691e-002	 4.973891e-001	 9.601514e-001	 -1.826556e+001	 9.596941e-001	 -1.817099e+001	 5.881353e-002	 2.191936e-001	
31788	 5.860825e-002	 8.819312e-001	 9.588887e-001	 -1.909518e+001	 9.590119e-001	 -1.902702e+001	 5.881581e-002	 5.499183e-001	
33344	 5.871929e-002	 1.209733e+000	 9.578355e-001	 -1.994407e+001	 9.575539e-001	 -1.984920e+001	 5.887631e-002	 8.185467e-001	
34900	 5.879095e-002	 1.489012e+000	 9.565760e-001	 -2.076498e+001	 9.564726e-001	 -2.069701e+001	 5.905579e-002	 1.154707e+000	
36456	 5.894900e-002	 1.800353e+000	 9.558251e-001	 -2.160023e+001	 9.551509e-001	 -2.151781e+001	 5.909556e-002	 1.462907e+000	
38013	 5.901275e-002	 2.144934e+000	 9.548473e-001	 -2.244136e+001	 9.547558e-001	 -2.237028e+001	 5.925075e-002	 1.750548e+000	
39569	 5.920117e-002	 2.455802e+000	 9.535668e-001	 -2.327319e+001	 9.539792e-001	 -2.320070e+001	 5.944087e-002	 2.009875e+000	
41125	 5.934134e-002	 2.756000e+000	 9.532415e-001	 -2.412296e+001	 9.530368e-001	 -2.404609e+001	 5.954601e-002	 2.305688e+000	
42681	 5.947384e-002	 3.059014e+000	 9.525321e-001	 -2.495738e+001	 9.522333e-001	 -2.489687e+001	 5.971453e-002	 2.575762e+000	
44238	 5.973341e-002	 3.287603e+000	 9.515626e-001	 -2.578592e+001	 9.515206e-001	 -2.573412e+001	 6.000529e-002	 2.743740e+000	
45794	 5.993718e-002	 3.491873e+000	 9.511073e-001	 -2.663323e+001	 9.511746e-001	 -2.656747e+001	 6.020595e-002	 2.930871e+000	
47350	 6.021263e-002	 3.726825e+000	 9.506379e-001	 -2.747149e+001	 9.504460e-001	 -2.741324e+001	 6.040725e-002	 3.047891e+000	
48906	 6.046716e-002	 3.921274e+000	 9.498526e-001	 -2.830638e+001	 9.499502e-001	 -2.825520e+001	 6.066291e-002	 3.240769e+000	
50463	 6.076398e-002	 4.107582e+000	 9.494112e-001	 -2.915041e+001	 9.492715e-001	 -2.910875e+001	 6.097797e-002	 3.392761e+000	
52019	 6.106127e-002	 4.241937e+000	 9.485936e-001	 -3.000043e+001	 9.486620e-001	 -2.994485e+001	 6.129500e-002	 3.450199e+000	
53575	 6.134160e-002	 4.351120e+000	 9.481633e-001	 -3.084100e+001	 9.482078e-001	 -3.078783e+001	 6.154966e-002	 3.603130e+000	
55131	 6.171644e-002	 4.488055e+000	 9.476237e-001	 -3.168299e+001	 9.477328e-001	 -3.162686e+001	 6.188976e-002	 3.657606e+000	
56688	 6.204488e-002	 4.570221e+000	 9.469446e-001	 -3.251715e+001	 9.468810e-001	 -3.248014e+001	 6.224338e-002	 3.738819e+000	
58244	 6.240456e-002	 4.656290e+000	 9.466580e-001	 -3.338006e+001	 9.465366e-001	 -3.332519e+001	 6.255106e-002	 3.818441e+000	
59800	 6.277858e-002	 4.729766e+000	 9.459835e-001	 -3.422573e+001	 9.460002e-001	 -3.416471e+001	 6.292995e-002	 3.823247e+000	
61356	 6.312165e-002	 4.756100e+000	 9.457674e-001	 -3.506844e+001	 9.457043e-001	 -3.501466e+001	 6.329081e-002	 3.842971e+000	
62913	 6.349736e-002	 4.803863e+000	 9.451270e-001	 -3.590924e+001	 9.453628e-001	 -3.585320e+001	 6.363513e-002	 3.846240e+000	
64469	 6.390006e-002	 4.811309e+000	 9.446540e-001	 -3.675728e+001	 9.444910e-001	 -3.671614e+001	 6.401823e-002	 3.857365e+000	
66025	 6.428497e-002	 4.792631e+000	 9.440910e-001	 -3.761289e+001	 9.440258e-001	 -3.756218e+001	 6.437249e-002	 3.839584e+000	
67581	 6.465368e-002	 4.765235e+000	 9.438403e-001	 -3.845026e+001	 9.437715e-001	 -3.840622e+001	 6.479684e-002	 3.736596e+000	
69138	 6.505217e-002	 4.729260e+000	 9.432104e-001	 -3.929752e+001	 9.433178e-001	 -3.925868e+001	 6.512879e-002	 3.727663e+000	
70694	 6.544095e-002	 4.670970e+000	 9.428453e-001	 -4.013551e+001	 9.428219e-001	 -4.009063e+001	 6.547502e-002	 3.654346e+000	
72250	 6.584943e-002	 4.618623e+000	 9.422411e-001	 -4.099976e+001	 9.424265e-001	 -4.093344e+001	 6.588167e-002	 3.515432e+000	
73806	 6.626670e-002	 4.536481e+000	 9.418548e-001	 -4.183723e+001	 9.419337e-001	 -4.179808e+001	 6.628554e-002	 3.497276e+000	
75363	 6.665971e-002	 4.440622e+000	 9.414030e-001	 -4.268777e+001	 9.413698e-001	 -4.263906e+001	 6.668359e-002	 3.341755e+000	
76919	 6.710538e-002	 4.332719e+000	 9.409419e-001	 -4.353856e+001	 9.409218e-001	 -4.348597e+001	 6.706875e-002	 3.214813e+000	
78475	 6.752862e-002	 4.230810e+000	 9.405621e-001	 -4.437681e+001	 9.404590e-001	 -4.434913e+001	 6.748161e-002	 3.101076e+000	
80031	 6.797283e-002	 4.103215e+000	 9.402117e-001	 -4.522345e+001	 9.402096e-001	 -4.518924e+001	 6.789364e-002	 2.908157e+000	
81588	 6.838447e-002	 3.950305e+000	 9.397873e-001	 -4.607477e+001	 9.396906e-001	 -4.604073e+001	 6.826638e-002	 2.751259e+000	
83144	 6.880706e-002	 3.785961e+000	 9.392658e-001	 -4.692208e+001	 9.391207e-001	 -4.689342e+001	 6.871371e-002	 2.625069e+000	
84700	 6.924094e-002	 3.664106e+000	 9.390321e-001	 -4.779232e+001	 9.388555e-001	 -4.775989e+001	 6.909249e-002	 2.496697e+000	
86256	 6.965093e-002	 3.475855e+000	 9.384252e-001	 -4.863608e+001	 9.384569e-001	 -4.858309e+001	 6.953367e-002	 2.232282e+000	
87813	 7.007519e-002	 3.264195e+000	 9.379596e-001	 -4.948229e+001	 9.378756e-001	 -4.945098e+001	 6.992444e-002	 2.010221e+000	
89369	 7.051588e-002	 3.057506e+000	 9.375265e-001	 -5.034473e+001	 9.375525e-001	 -5.030491e+001	 7.035598e-002	 1.830033e+000	
90925	 7.091837e-002	 2.839592e+000	 9.372260e-001	 -5.118712e+001	 9.371432e-001	 -5.113988e+001	 7.077837e-002	 1.590482e+000	
92481	 7.134856e-002	 2.623078e+000	 9.368824e-001	 -5.203700e+001	 9.367711e-001	 -5.200328e+001	 7.115258e-002	 1.357860e+000	
94038	 7.176430e-002	 2.406725e+000	 9.364889e-001	 -5.288948e+001	 9.361922e-001	 -5.284534e+001	 7.159185e-002	 1.089927e+000	
95594	 7.219741e-002	 2.134714e+000	 9.360653e-001	 -5.375279e+001	 9.359047e-001	 -5.370617e+001	 7.196424e-002	 8.352100e-001	
97150	 7.258769e-002	 1.897265e+000	 9.356056e-001	 -5.458971e+001	 9.355981e-001	 -5.455496e+001	 7.241018e-002	 5.614116e-001	
98706	 7.304322e-002	 1.639949e+000	 9.351715e-001	 -5.544945e+001	 9.352822e-001	 -5.541328e+001	 7.278538e-002	 2.972428e-001	
100263	 7.343051e-002	 1.354363e+000	 9.348028e-001	 -5.628595e+001	 9.349308e-001	 -5.626414e+001	 7.320400e-002	 1.784521e-002	
101819	 7.384237e-002	 1.065552e+000	 9.343791e-001	 -5.715067e+001	 9.343345e-001	 -5.710656e+001	 7.358647e-002	 -2.940497e-001	
103375	 7.425265e-002	 8.006703e-001	 9.341128e-001	 -5.800720e+001	 9.340672e-001	 -5.796574e+001	 7.396703e-002	 -5.909911e-001	
104931	 7.469042e-002	 4.710866e-001	 9.337107e-001	 -5.885561e+001	 9.334043e-001	 -5.880701e+001	 7.438367e-002	 -8.697858e-001	
106488	 7.509258e-002	 1.542025e-001	 9.330558e-001	 -5.969691e+001	 9.332126e-001	 -5.966562e+001	 7.477368e-002	 -1.224836e+000	
108044	 7.547394e-002	 -1.447949e-001	 9.327933e-001	 -6.055654e+001	 9.325145e-001	 -6.051455e+001	 7.515370e-002	 -1.538644e+000	
109600	 7.585778e-002	 -4.725308e-001	 9.323084e-001	 -6.141053e+001	 9.322228e-001	 -6.136922e+001	 7.550080e-002	 -1.829867e+000	
111156	 7.624809e-002	 -8.083777e-001	 9.319797e-001	 -6.225085e+001	 9.318774e-001	 -6.223059e+001	 7.587763e-002	 -2.215656e+000	
112713	 7.663321e-002	 -1.138059e+000	 9.314684e-001	 -6.310907e+001	 9.314708e-001	 -6.307969e+001	 7.626684e-002	 -2.557143e+000	
114269	 7.700615e-002	 -1.478906e+000	 9.313172e-001	 -6.397470e+001	 9.310775e-001	 -6.391941e+001	 7.664288e-002	 -2.941433e+000	
115825	 7.738031e-002	 -1.870193e+000	 9.309253e-001	 -6.483350e+001	 9.305757e-001	 -6.477773e+001	 7.699964e-002	 -3.277447e+000	
117381	 7.772855e-002	 -2.205078e+000	 9.305220e-001	 -6.566817e+001	 9.302768e-001	 -6.564687e+001	 7.738182e-002	 -3.651729e+000	
118938	 7.809631e-002	 -2.564433e+000	 9.300504e-001	 -6.652703e+001	 9.300459e-001	 -6.648997e+001	 7.772751e-002	 -4.046939e+000	
120494	 7.843219e-002	 -2.966348e+000	 9.297504e-001	 -6.737740e+001	 9.296216e-001	 -6.734758e+001	 7.808592e-002	 -4.452149e+000	
122050	 7.877757e-002	 -3.339570e+000	 9.293833e-001	 -6.823968e+001	 9.293431e-001	 -6.820018e+001	 7.840993e-002	 -4.853211e+000	
123606	 7.912536e-002	 -3.742774e+000	 9.289237e-001	 -6.909332e+001	 9.287890e-001	 -6.905185e+001	 7.872937e-002	 -5.245943e+000	
125163	 7.948945e-002	 -4.114211e+000	 9.286320e-001	 -6.994874e+001	 9.286325e-001	 -6.990460e+001	 7.904226e-002	 -5.644547e+000	
126719	 7.978460e-002	 -4.555014e+000	 9.283262e-001	 -7.079771e+001	 9.279236e-001	 -7.078310e+001	 7.938317e-002	 -6.074131e+000	
128275	 8.010724e-002	 -4.928126e+000	 9.276751e-001	 -7.165969e+001	 9.275293e-001	 -7.163288e+001	 7.968624e-002	 -6.475874e+000	
129831	 8.044754e-002	 -5.349131e+000	 9.275495e-001	 -7.251100e+001	 9.271095e-001	 -7.249058e+001	 7.998315e-002	 -6.905704e+000	
131388	 8.073787e-002	 -5.762296e+000	 9.270055e-001	 -7.337252e+001	 9.266570e-001	 -7.333260e+001	 8.028176e-002	 -7.360015e+000	
132944	 8.100984e-002	 -6.201337e+000	 9.262773e-001	 -7.422400e+001	 9.264515e-001	 -7.418591e+001	 8.054829e-002	 -7.798145e+000	
134500	 8.130138e-002	 -6.633493e+000	 9.264801e-001	 -7.507694e+001	 9.261100e-001	 -7.504542e+001	 8.084223e-002	 -8.250079e+000	
136056	 8.157233e-002	 -7.072832e+000	 9.260207e-001	 -7.594113e+001	 9.257553e-001	 -7.590588e+001	 8.108608e-002	 -8.693871e+000	
137613	 8.185191e-002	 -7.508865e+000	 9.255146e-001	 -7.680809e+001	 9.256365e-001	 -7.675944e+001	 8.133769e-002	 -9.148199e+000	
139169	 8.208331e-002	 -7.947056e+000	 9.249378e-001	 -7.765847e+001	 9.248376e-001	 -7.763383e+001	 8.156887e-002	 -9.621751e+000	
140725	 8.233939e-002	 -8.386062e+000	 9.249786e-001	 -7.850716e+001	 9.245614e-001	 -7.847293e+001	 8.176903e-002	 -1.008626e+001	
142281	 8.255890e-002	 -8.861684e+000	 9.244581e-001	 -7.937171e+001	 9.242530e-001	 -7.932693e+001	 8.206577e-002	 -1.055565e+001	
143838	 8.276159e-002	 -9.321172e+000	 9.240943e-001	 -8.023452e+001	 9.239472e-001	 -8.019840e+001	 8.224055e-002	 -1.103884e+001	
145394	 8.299461e-002	 -9.770084e+000	 9.236436e-001	 -8.109305e+001	 9.234408e-001	 -8.105081e+001	 8.244296e-002	 -1.151424e+001	
146950	 8.319679e-002	 -1.024233e+001	 9.232312e-001	 -8.194497e+001	 9.232522e-001	 -8.190886e+001	 8.264955e-002	 -1.199550e+001	
148506	 8.338278e-002	 -1.071767e+001	 9.230194e-001	 -8.281464e+001	 9.226232e-001	 -8.276765e+001	 8.280653e-002	 -1.249642e+001	
150063	 8.356401e-002	 -1.122164e+001	 9.227001e-001	 -8.365756e+001	 9.221609e-001	 -8.363284e+001	 8.298471e-002	 -1.299296e+001	
151619	 8.372805e-002	 -1.168412e+001	 9.221448e-001	 -8.452487e+001	 9.218419e-001	 -8.448305e+001	 8.309847e-002	 -1.350986e+001	
153175	 8.383968e-002	 -1.217193e+001	 9.215778e-001	 -8.539958e+001	 9.216826e-001	 -8.534298e+001	 8.325318e-002	 -1.400056e+001	
154731	 8.400049e-002	 -1.267040e+001	 9.216539e-001	 -8.624644e+001	 9.214287e-001	 -8.619991e+001	 8.340612e-002	 -1.453131e+001	
156288	 8.415984e-002	 -1.314426e+001	 9.209502e-001	 -8.709753e+001	 9.208708e-001	 -8.708202e+001	 8.351228e-002	 -1.501313e+001	
157844	 8.424599e-002	 -1.364792e+001	 9.206918e-001	 -8.795400e+001	 9.204269e-001	 -8.793629e+001	 8.362030e-002	 -1.553242e+001	
159400	 8.436630e-002	 -1.412980e+001	 9.202995e-001	 -8.882179e+001	 9.199370e-001	 -8.880800e+001	 8.373404e-002	 -1.604785e+001	
160956	 8.445612e-002	 -1.464876e+001	 9.198428e-001	 -8.969756e+001	 9.196032e-001	 -8.964995e+001	 8.378103e-002	 -1.658500e+001	
162513	 8.453546e-002	 -1.514302e+001	 9.195953e-001	 -9.053600e+001	 9.194397e-001	 -9.051136e+001	 8.387267e-002	 -1.708906e+001	
164069	 8.459283e-002	 -1.564435e+001	 9.191372e-001	 -9.142480e+001	 9.189005e-001	 -9.136426e+001	 8.389775e-002	 -1.762421e+001	
165625	 8.465260e-002	 -1.617267e+001	 9.188116e-001	 -9.227069e+001	 9.184255e-001	 -9.223926e+001	 8.395189e-002	 -1.815413e+001	
167181	 8.469503e-002	 -1.668089e+001	 9.182550e-001	 -9.314708e+001	 9.181874e-001	 -9.310535e+001	 8.398558e-002	 -1.870891e+001	
168738	 8.469734e-002	 -1.718220e+001	 9.179189e-001	 -9.400329e+001	 9.177752e-001	 -9.395617e+001	 8.402169e-002	 -1.922875e+001	
170294	 8.473089e-002	 -1.771054e+001	 9.178199e-001	 -9.485976e+001	 9.174011e-001	 -9.482182e+001	 8.396874e-002	 -1.976602e+001	
171850	 8.471274e-002	 -1.820804e+001	 9.173386e-001	 -9.571416e+001	 9.170564e-001	 -9.569102e+001	 8.397233e-002	 -2.029704e+001	
173406	 8.467831e-002	 -1.874099e+001	 9.169455e-001	 -9.658926e+001	 9.167754e-001	 -9.656363e+001	 8.392438e-002	 -2.085442e+001	
174963	 8.467279e-002	 -1.926914e+001	 9.166942e-001	 -9.745977e+001	 9.161681e-001	 -9.741406e+001	 8.390012e-002	 -2.139694e+001	
176519	 8.461619e-002	 -1.978685e+001	 9.161186e-001	 -9.831232e+001	 9.159275e-001	 -9.828322e+001	 8.379700e-002	 -2.194664e+001	
178075	 8.453701e-002	 -2.031816e+001	 9.157141e-001	 -9.917768e+001	 9.153351e-001	 -9.915051e+001	 8.375680e-002	 -2.249333e+001	
179631	 8.446454e-002	 -2.084216e+001	 9.153607e-001	 -1.000531e+002	 9.148399e-001	 -1.000006e+002	 8.366268e-002	 -2.302151e+001	
181188	 8.438139e-002	 -2.137180e+001	 9.151602e-001	 -1.009297e+002	 9.145309e-001	 -1.008867e+002	 8.355757e-002	 -2.358768e+001	
182744	 8.428211e-002	 -2.191160e+001	 9.144896e-001	 -1.017881e+002	 9.142085e-001	 -1.017411e+002	 8.342418e-002	 -2.416351e+001	
184300	 8.413122e-002	 -2.242992e+001	 9.143356e-001	 -1.026472e+002	 9.140164e-001	 -1.025929e+002	 8.329402e-002	 -2.470817e+001	
185856	 8.401321e-002	 -2.294537e+001	 9.138961e-001	 -1.035256e+002	 9.135044e-001	 -1.034724e+002	 8.316769e-002	 -2.526149e+001	
187413	 8.384322e-002	 -2.349390e+001	 9.137123e-001	 -1.043683e+002	 9.131185e-001	 -1.043462e+002	 8.295200e-002	 -2.581667e+001	
188969	 8.367824e-002	 -2.403405e+001	 9.130307e-001	 -1.052549e+002	 9.126723e-001	 -1.052014e+002	 8.276789e-002	 -2.638432e+001	
190525	 8.347389e-002	 -2.455634e+001	 9.127267e-001	 -1.061357e+002	 9.124974e-001	 -1.060720e+002	 8.257495e-002	 -2.696035e+001	
192081	 8.326614e-002	 -2.508456e+001	 9.123067e-001	 -1.069751e+002	 9.121466e-001	 -1.069421e+002	 8.234702e-002	 -2.750988e+001	
193638	 8.307902e-002	 -2.562253e+001	 9.120966e-001	 -1.078551e+002	 9.117912e-001	 -1.078331e+002	 8.209760e-002	 -2.805813e+001	
195194	 8.282943e-002	 -2.614254e+001	 9.115207e-001	 -1.087234e+002	 9.112868e-001	 -1.086920e+002	 8.184601e-002	 -2.861953e+001	
196750	 8.256990e-002	 -2.672478e+001	 9.113351e-001	 -1.096130e+002	 9.109668e-001	 -1.095479e+002	 8.157561e-002	 -2.919482e+001	
198306	 8.230393e-002	 -2.723246e+001	 9.109122e-001	 -1.104807e+002	 9.105207e-001	 -1.104367e+002	 8.130881e-002	 -2.977877e+001	
199863	 8.201782e-002	 -2.776518e+001	 9.106319e-001	 -1.113383e+002	 9.101038e-001	 -1.113059e+002	 8.100009e-002	 -3.032182e+001	
201419	 8.171659e-002	 -2.830083e+001	 9.101170e-001	 -1.122200e+002	 9.097710e-001	 -1.121666e+002	 8.068894e-002	 -3.088892e+001	
202975	 8.139208e-002	 -2.884611e+001	 9.096822e-001	 -1.130726e+002	 9.092913e-001	 -1.130246e+002	 8.035372e-002	 -3.146472e+001	
204531	 8.105478e-002	 -2.934810e+001	 9.093487e-001	 -1.139497e+002	 9.090455e-001	 -1.139161e+002	 7.997856e-002	 -3.203137e+001	
206088	 8.071672e-002	 -2.989461e+001	 9.087139e-001	 -1.148211e+002	 9.086412e-001	 -1.148020e+002	 7.959274e-002	 -3.258254e+001	
207644	 8.030846e-002	 -3.042128e+001	 9.085328e-001	 -1.156989e+002	 9.080528e-001	 -1.156536e+002	 7.924198e-002	 -3.313921e+001	
209200	 7.989533e-002	 -3.093926e+001	 9.082381e-001	 -1.165786e+002	 9.077195e-001	 -1.165217e+002	 7.881936e-002	 -3.370920e+001	
210756	 7.952929e-002	 -3.145765e+001	 9.078009e-001	 -1.174486e+002	 9.074051e-001	 -1.173921e+002	 7.840668e-002	 -3.428762e+001	
212313	 7.912209e-002	 -3.198275e+001	 9.076881e-001	 -1.183328e+002	 9.071630e-001	 -1.182631e+002	 7.796173e-002	 -3.482452e+001	
213869	 7.864531e-002	 -3.251902e+001	 9.071103e-001	 -1.192191e+002	 9.069359e-001	 -1.191678e+002	 7.749427e-002	 -3.540022e+001	
215425	 7.819210e-002	 -3.301393e+001	 9.067462e-001	 -1.200751e+002	 9.062648e-001	 -1.200304e+002	 7.702839e-002	 -3.594252e+001	
216981	 7.770972e-002	 -3.353161e+001	 9.061449e-001	 -1.209529e+002	 9.059569e-001	 -1.209105e+002	 7.652717e-002	 -3.648455e+001	
218538	 7.721280e-002	 -3.406292e+001	 9.060486e-001	 -1.218247e+002	 9.053980e-001	 -1.217729e+002	 7.599819e-002	 -3.703716e+001	
220094	 7.670502e-002	 -3.457201e+001	 9.056328e-001	 -1.227087e+002	 9.051058e-001	 -1.226567e+002	 7.545613e-002	 -3.762033e+001	
221650	 7.617209e-002	 -3.506926e+001	 9.051131e-001	 -1.235837e+002	 9.046067e-001	 -1.235353e+002	 7.493991e-002	 -3.815841e+001	
223206	 7.561803e-002	 -3.556499e+001	 9.049073e-001	 -1.244690e+002	 9.042168e-001	 -1.244053e+002	 7.435139e-002	 -3.869619e+001	
224763	 7.507237e-002	 -3.607558e+001	 9.041309e-001	 -1.253378e+002	 9.040129e-001	 -1.253003e+002	 7.377180e-002	 -3.924689e+001	
226319	 7.448748e-002	 -3.657378e+001	 9.038650e-001	 -1.262273e+002	 9.037772e-001	 -1.261739e+002	 7.316285e-002	 -3.979099e+001	
227875	 7.388645e-002	 -3.706473e+001	 9.037551e-001	 -1.271056e+002	 9.031412e-001	 -1.270477e+002	 7.256165e-002	 -4.032172e+001	
229431	 7.326448e-002	 -3.752703e+001	 9.031931e-001	 -1.279677e+002	 9.028279e-001	 -1.279317e+002	 7.191578e-002	 -4.085618e+001	
230988	 7.261260e-002	 -3.801094e+001	 9.028178e-001	 -1.288664e+002	 9.024249e-001	 -1.288168e+002	 7.124612e-002	 -4.138896e+001	
232544	 7.197972e-002	 -3.848330e+001	 9.021817e-001	 -1.297408e+002	 9.022372e-001	 -1.297026e+002	 7.058890e-002	 -4.192121e+001	
234100	 7.131497e-002	 -3.896625e+001	 9.020472e-001	 -1.306258e+002	 9.016693e-001	 -1.305799e+002	 6.989506e-002	 -4.242965e+001	
235656	 7.060651e-002	 -3.940274e+001	 9.013627e-001	 -1.314970e+002	 9.012276e-001	 -1.314579e+002	 6.916369e-002	 -4.294926e+001	
237213	 6.990806e-002	 -3.986850e+001	 9.011083e-001	 -1.323616e+002	 9.007385e-001	 -1.323358e+002	 6.841869e-002	 -4.345580e+001	
238769	 6.919350e-002	 -4.033547e+001	 9.012139e-001	 -1.332653e+002	 9.004173e-001	 -1.332171e+002	 6.771443e-002	 -4.396027e+001	
240325	 6.844223e-002	 -4.075982e+001	 9.002953e-001	 -1.341537e+002	 8.999600e-001	 -1.341094e+002	 6.691330e-002	 -4.445363e+001	
241881	 6.767941e-002	 -4.118357e+001	 8.998948e-001	 -1.350409e+002	 8.995063e-001	 -1.349887e+002	 6.614419e-002	 -4.497074e+001	
243438	 6.692272e-002	 -4.158234e+001	 8.995342e-001	 -1.359124e+002	 8.993914e-001	 -1.358603e+002	 6.534241e-002	 -4.544812e+001	
244994	 6.611574e-002	 -4.200530e+001	 8.991723e-001	 -1.367985e+002	 8.989367e-001	 -1.367577e+002	 6.453537e-002	 -4.591719e+001	
