# HZ S MA R 50


10000	 5.912860e-002	 -1.081330e+001	 9.677683e-001	 -5.646220e+000	 9.644071e-001	 -5.542083e+000	 5.995781e-002	 -1.114828e+001	
11556	 5.705499e-002	 -9.752316e+000	 9.681575e-001	 -6.526637e+000	 9.682410e-001	 -6.569672e+000	 5.751622e-002	 -1.099052e+001	
13113	 5.475521e-002	 -9.665743e+000	 9.715234e-001	 -7.764574e+000	 9.700077e-001	 -7.600297e+000	 5.536833e-002	 -1.031313e+001	
14669	 5.386080e-002	 -7.684457e+000	 9.731022e-001	 -8.885079e+000	 9.722320e-001	 -8.694696e+000	 5.453812e-002	 -7.962598e+000	
16225	 5.273241e-002	 -9.535555e+000	 9.732888e-001	 -1.062424e+001	 9.773067e-001	 -8.828392e+000	 5.771636e-002	 -6.558050e+000	
17781	 5.391777e-002	 -2.570889e+000	 9.719665e-001	 -1.103997e+001	 9.710192e-001	 -1.093169e+001	 5.439411e-002	 -2.805805e+000	
19338	 5.505008e-002	 -5.101901e-001	 9.695091e-001	 -1.201446e+001	 9.692041e-001	 -1.192058e+001	 5.535456e-002	 -1.036520e+000	
20894	 5.609870e-002	 8.025923e-001	 9.667764e-001	 -1.293074e+001	 9.667094e-001	 -1.286483e+001	 5.652919e-002	 5.992268e-001	
22450	 5.690097e-002	 1.659562e+000	 9.646646e-001	 -1.382035e+001	 9.648162e-001	 -1.376585e+001	 5.725556e-002	 1.357176e+000	
24006	 5.796111e-002	 1.342531e+000	 9.632344e-001	 -1.457158e+001	 9.603502e-001	 -1.458993e+001	 5.883675e-002	 1.926456e+000	
25563	 5.805073e-002	 2.640252e+000	 9.610649e-001	 -1.553972e+001	 9.608057e-001	 -1.550435e+001	 5.841149e-002	 2.513373e+000	
27119	 5.844024e-002	 3.019505e+000	 9.592665e-001	 -1.638298e+001	 9.592640e-001	 -1.632414e+001	 5.873968e-002	 2.828979e+000	
28675	 5.866397e-002	 3.129260e+000	 9.580150e-001	 -1.720198e+001	 9.580423e-001	 -1.715177e+001	 5.891676e-002	 3.139974e+000	
30231	 5.881336e-002	 3.489773e+000	 9.570621e-001	 -1.804778e+001	 9.572310e-001	 -1.800224e+001	 5.908578e-002	 3.475607e+000	
31788	 5.891542e-002	 3.764462e+000	 9.560962e-001	 -1.889582e+001	 9.563392e-001	 -1.883095e+001	 5.921458e-002	 3.723210e+000	
33344	 5.908717e-002	 3.979663e+000	 9.551033e-001	 -1.970576e+001	 9.551997e-001	 -1.965120e+001	 5.941659e-002	 3.880045e+000	
34900	 5.933949e-002	 4.235893e+000	 9.536812e-001	 -2.051155e+001	 9.541954e-001	 -2.050000e+001	 5.973336e-002	 4.134531e+000	
36456	 5.956656e-002	 4.400097e+000	 9.531964e-001	 -2.134933e+001	 9.531279e-001	 -2.131351e+001	 5.987147e-002	 4.337335e+000	
38013	 5.971110e-002	 4.668469e+000	 9.522479e-001	 -2.218629e+001	 9.528683e-001	 -2.216121e+001	 6.007386e-002	 4.567210e+000	
39569	 5.996785e-002	 4.889757e+000	 9.513589e-001	 -2.300449e+001	 9.520375e-001	 -2.298317e+001	 6.026543e-002	 4.792851e+000	
41125	 6.015765e-002	 5.122295e+000	 9.509801e-001	 -2.385787e+001	 9.513097e-001	 -2.382098e+001	 6.045637e-002	 4.999019e+000	
42681	 6.035141e-002	 5.265860e+000	 9.505803e-001	 -2.468580e+001	 9.508692e-001	 -2.465757e+001	 6.070160e-002	 5.202885e+000	
44238	 6.069873e-002	 5.445354e+000	 9.497364e-001	 -2.551845e+001	 9.502607e-001	 -2.549929e+001	 6.100711e-002	 5.349449e+000	
45794	 6.093460e-002	 5.615222e+000	 9.492288e-001	 -2.636480e+001	 9.497899e-001	 -2.633773e+001	 6.122950e-002	 5.502067e+000	
47350	 6.124840e-002	 5.754915e+000	 9.489932e-001	 -2.719533e+001	 9.491670e-001	 -2.717135e+001	 6.154001e-002	 5.613316e+000	
48906	 6.155122e-002	 5.894272e+000	 9.480425e-001	 -2.802424e+001	 9.487721e-001	 -2.800496e+001	 6.180494e-002	 5.759847e+000	
50463	 6.187785e-002	 6.001572e+000	 9.477470e-001	 -2.886262e+001	 9.482183e-001	 -2.885320e+001	 6.216192e-002	 5.867943e+000	
52019	 6.222000e-002	 6.141522e+000	 9.471688e-001	 -2.970954e+001	 9.478465e-001	 -2.968826e+001	 6.251620e-002	 5.915467e+000	
53575	 6.256443e-002	 6.198956e+000	 9.467479e-001	 -3.053766e+001	 9.473714e-001	 -3.053255e+001	 6.280810e-002	 6.052333e+000	
55131	 6.295513e-002	 6.289513e+000	 9.462780e-001	 -3.139496e+001	 9.468346e-001	 -3.137221e+001	 6.319002e-002	 6.071236e+000	
56688	 6.333766e-002	 6.310438e+000	 9.457170e-001	 -3.222734e+001	 9.461886e-001	 -3.221371e+001	 6.360215e-002	 6.149251e+000	
58244	 6.376018e-002	 6.344306e+000	 9.454036e-001	 -3.307853e+001	 9.458467e-001	 -3.305880e+001	 6.391674e-002	 6.180809e+000	
59800	 6.416082e-002	 6.386832e+000	 9.449679e-001	 -3.392350e+001	 9.453903e-001	 -3.390183e+001	 6.432226e-002	 6.233979e+000	
61356	 6.452478e-002	 6.381303e+000	 9.446762e-001	 -3.476038e+001	 9.450873e-001	 -3.474758e+001	 6.472970e-002	 6.208118e+000	
62913	 6.494772e-002	 6.386977e+000	 9.441825e-001	 -3.560153e+001	 9.448385e-001	 -3.557761e+001	 6.511309e-002	 6.205233e+000	
64469	 6.537742e-002	 6.354878e+000	 9.436707e-001	 -3.645326e+001	 9.440754e-001	 -3.643972e+001	 6.550692e-002	 6.224792e+000	
66025	 6.580673e-002	 6.289862e+000	 9.431785e-001	 -3.730287e+001	 9.436153e-001	 -3.728267e+001	 6.589843e-002	 6.164315e+000	
67581	 6.619604e-002	 6.242797e+000	 9.430438e-001	 -3.813182e+001	 9.433701e-001	 -3.812097e+001	 6.637961e-002	 6.053227e+000	
69138	 6.664727e-002	 6.200364e+000	 9.423137e-001	 -3.898080e+001	 9.430143e-001	 -3.897738e+001	 6.675134e-002	 6.019392e+000	
70694	 6.704535e-002	 6.101093e+000	 9.421345e-001	 -3.983281e+001	 9.425679e-001	 -3.980356e+001	 6.713712e-002	 5.974895e+000	
72250	 6.751047e-002	 6.016571e+000	 9.416696e-001	 -4.068134e+001	 9.423084e-001	 -4.065535e+001	 6.758577e-002	 5.879777e+000	
73806	 6.798743e-002	 5.903121e+000	 9.413359e-001	 -4.151973e+001	 9.417802e-001	 -4.150823e+001	 6.798103e-002	 5.754994e+000	
75363	 6.839776e-002	 5.777654e+000	 9.409151e-001	 -4.236962e+001	 9.414010e-001	 -4.235517e+001	 6.844378e-002	 5.616521e+000	
76919	 6.887341e-002	 5.619575e+000	 9.406439e-001	 -4.320541e+001	 9.410182e-001	 -4.319169e+001	 6.884510e-002	 5.475230e+000	
78475	 6.931420e-002	 5.488717e+000	 9.402251e-001	 -4.405437e+001	 9.404206e-001	 -4.404802e+001	 6.930948e-002	 5.381389e+000	
80031	 6.979801e-002	 5.331000e+000	 9.397095e-001	 -4.490125e+001	 9.402280e-001	 -4.489600e+001	 6.973700e-002	 5.197229e+000	
81588	 7.019673e-002	 5.128679e+000	 9.395290e-001	 -4.574609e+001	 9.397016e-001	 -4.574596e+001	 7.016212e-002	 5.021768e+000	
83144	 7.066248e-002	 4.973747e+000	 9.389101e-001	 -4.660270e+001	 9.392941e-001	 -4.659152e+001	 7.063577e-002	 4.866863e+000	
84700	 7.114128e-002	 4.758246e+000	 9.386690e-001	 -4.745190e+001	 9.389700e-001	 -4.745111e+001	 7.104400e-002	 4.743170e+000	
86256	 7.157346e-002	 4.567051e+000	 9.382252e-001	 -4.830413e+001	 9.385954e-001	 -4.828437e+001	 7.152007e-002	 4.490748e+000	
87813	 7.203493e-002	 4.315554e+000	 9.377483e-001	 -4.915411e+001	 9.381800e-001	 -4.913501e+001	 7.194027e-002	 4.284744e+000	
89369	 7.248767e-002	 4.082966e+000	 9.374939e-001	 -5.000064e+001	 9.378650e-001	 -4.998808e+001	 7.235803e-002	 4.044887e+000	
90925	 7.292515e-002	 3.839178e+000	 9.370305e-001	 -5.083418e+001	 9.375265e-001	 -5.083239e+001	 7.280330e-002	 3.800418e+000	
92481	 7.340503e-002	 3.587291e+000	 9.366828e-001	 -5.169281e+001	 9.369920e-001	 -5.168398e+001	 7.324915e-002	 3.550027e+000	
94038	 7.384314e-002	 3.322758e+000	 9.362684e-001	 -5.253420e+001	 9.365270e-001	 -5.252282e+001	 7.367822e-002	 3.315404e+000	
95594	 7.425752e-002	 3.027161e+000	 9.360630e-001	 -5.339744e+001	 9.363187e-001	 -5.338581e+001	 7.406061e-002	 3.052958e+000	
97150	 7.470696e-002	 2.777482e+000	 9.354755e-001	 -5.423472e+001	 9.359018e-001	 -5.423043e+001	 7.453214e-002	 2.789851e+000	
98706	 7.516161e-002	 2.460849e+000	 9.352839e-001	 -5.509485e+001	 9.355236e-001	 -5.508687e+001	 7.493921e-002	 2.511931e+000	
100263	 7.558782e-002	 2.146024e+000	 9.347131e-001	 -5.593522e+001	 9.352124e-001	 -5.594007e+001	 7.533514e-002	 2.208328e+000	
101819	 7.598970e-002	 1.838171e+000	 9.346006e-001	 -5.680015e+001	 9.348106e-001	 -5.678396e+001	 7.576013e-002	 1.913056e+000	
103375	 7.642744e-002	 1.515792e+000	 9.341922e-001	 -5.764091e+001	 9.342221e-001	 -5.763104e+001	 7.614880e-002	 1.618965e+000	
104931	 7.687829e-002	 1.168527e+000	 9.338315e-001	 -5.849408e+001	 9.341524e-001	 -5.847981e+001	 7.661954e-002	 1.323713e+000	
106488	 7.727122e-002	 8.456973e-001	 9.333744e-001	 -5.934966e+001	 9.335719e-001	 -5.933294e+001	 7.701818e-002	 9.677418e-001	
108044	 7.766617e-002	 4.840218e-001	 9.329784e-001	 -6.018782e+001	 9.332845e-001	 -6.018133e+001	 7.739341e-002	 6.325395e-001	
109600	 7.806028e-002	 1.259532e-001	 9.328246e-001	 -6.104502e+001	 9.329427e-001	 -6.103191e+001	 7.779088e-002	 3.652498e-001	
111156	 7.848036e-002	 -2.339378e-001	 9.324049e-001	 -6.189315e+001	 9.323401e-001	 -6.188469e+001	 7.811730e-002	 -5.595826e-003	
112713	 7.886150e-002	 -5.847989e-001	 9.319436e-001	 -6.274678e+001	 9.321225e-001	 -6.273766e+001	 7.854612e-002	 -3.561800e-001	
114269	 7.924619e-002	 -9.626006e-001	 9.316892e-001	 -6.359681e+001	 9.319479e-001	 -6.358165e+001	 7.893267e-002	 -7.448827e-001	
115825	 7.960904e-002	 -1.378361e+000	 9.311327e-001	 -6.444263e+001	 9.313081e-001	 -6.443320e+001	 7.931070e-002	 -1.099634e+000	
117381	 8.000511e-002	 -1.756884e+000	 9.311003e-001	 -6.530040e+001	 9.307705e-001	 -6.529520e+001	 7.969683e-002	 -1.489324e+000	
118938	 8.035713e-002	 -2.173741e+000	 9.303350e-001	 -6.615913e+001	 9.309628e-001	 -6.614129e+001	 8.003284e-002	 -1.868297e+000	
120494	 8.070914e-002	 -2.578947e+000	 9.300618e-001	 -6.700199e+001	 9.304860e-001	 -6.698853e+001	 8.041066e-002	 -2.245739e+000	
122050	 8.105088e-002	 -2.994637e+000	 9.298463e-001	 -6.786185e+001	 9.298543e-001	 -6.784575e+001	 8.073240e-002	 -2.643244e+000	
123606	 8.138113e-002	 -3.402094e+000	 9.291762e-001	 -6.870794e+001	 9.294922e-001	 -6.869939e+001	 8.105749e-002	 -3.032199e+000	
125163	 8.172844e-002	 -3.821713e+000	 9.290226e-001	 -6.956235e+001	 9.293898e-001	 -6.954466e+001	 8.137626e-002	 -3.434588e+000	
126719	 8.203461e-002	 -4.277521e+000	 9.286122e-001	 -7.041859e+001	 9.289443e-001	 -7.040591e+001	 8.167797e-002	 -3.853579e+000	
128275	 8.237267e-002	 -4.696420e+000	 9.283427e-001	 -7.126411e+001	 9.287186e-001	 -7.126604e+001	 8.199633e-002	 -4.276852e+000	
129831	 8.265789e-002	 -5.144623e+000	 9.280362e-001	 -7.212494e+001	 9.283919e-001	 -7.211821e+001	 8.227127e-002	 -4.712885e+000	
131388	 8.296228e-002	 -5.607294e+000	 9.275446e-001	 -7.298858e+001	 9.275576e-001	 -7.297306e+001	 8.257503e-002	 -5.125882e+000	
132944	 8.322977e-002	 -6.067001e+000	 9.270474e-001	 -7.383136e+001	 9.274006e-001	 -7.382398e+001	 8.286259e-002	 -5.553105e+000	
134500	 8.351606e-002	 -6.512140e+000	 9.270462e-001	 -7.467986e+001	 9.267938e-001	 -7.467950e+001	 8.313093e-002	 -5.997569e+000	
136056	 8.376139e-002	 -6.997471e+000	 9.266987e-001	 -7.553117e+001	 9.266779e-001	 -7.552106e+001	 8.336038e-002	 -6.429358e+000	
137613	 8.401389e-002	 -7.466682e+000	 9.262257e-001	 -7.640318e+001	 9.262111e-001	 -7.639901e+001	 8.361852e-002	 -6.885722e+000	
139169	 8.422340e-002	 -7.940335e+000	 9.255385e-001	 -7.725629e+001	 9.259493e-001	 -7.724656e+001	 8.385559e-002	 -7.362619e+000	
140725	 8.446946e-002	 -8.411119e+000	 9.256254e-001	 -7.810828e+001	 9.255399e-001	 -7.808781e+001	 8.407211e-002	 -7.820829e+000	
142281	 8.468006e-002	 -8.901702e+000	 9.250262e-001	 -7.896645e+001	 9.252526e-001	 -7.895380e+001	 8.431397e-002	 -8.298303e+000	
143838	 8.485603e-002	 -9.397041e+000	 9.247898e-001	 -7.982538e+001	 9.249368e-001	 -7.981738e+001	 8.449613e-002	 -8.756333e+000	
145394	 8.506901e-002	 -9.889285e+000	 9.243703e-001	 -8.068058e+001	 9.245007e-001	 -8.066658e+001	 8.465732e-002	 -9.215259e+000	
146950	 8.524231e-002	 -1.039514e+001	 9.238941e-001	 -8.153011e+001	 9.241193e-001	 -8.152642e+001	 8.487249e-002	 -9.711201e+000	
148506	 8.540875e-002	 -1.089280e+001	 9.234678e-001	 -8.239433e+001	 9.237018e-001	 -8.237142e+001	 8.502268e-002	 -1.018456e+001	
150063	 8.556000e-002	 -1.140710e+001	 9.233032e-001	 -8.324803e+001	 9.232488e-001	 -8.322858e+001	 8.513950e-002	 -1.066898e+001	
151619	 8.571572e-002	 -1.191197e+001	 9.226992e-001	 -8.412069e+001	 9.228315e-001	 -8.409676e+001	 8.531469e-002	 -1.117119e+001	
153175	 8.581222e-002	 -1.244037e+001	 9.227031e-001	 -8.495448e+001	 9.226977e-001	 -8.495825e+001	 8.542809e-002	 -1.163907e+001	
154731	 8.592547e-002	 -1.296081e+001	 9.221763e-001	 -8.583235e+001	 9.224620e-001	 -8.579752e+001	 8.552834e-002	 -1.216841e+001	
156288	 8.602353e-002	 -1.348340e+001	 9.216835e-001	 -8.667805e+001	 9.219916e-001	 -8.667537e+001	 8.562526e-002	 -1.265361e+001	
157844	 8.611391e-002	 -1.400728e+001	 9.214774e-001	 -8.753230e+001	 9.213516e-001	 -8.753763e+001	 8.573078e-002	 -1.315563e+001	
159400	 8.619184e-002	 -1.452021e+001	 9.210151e-001	 -8.839539e+001	 9.210760e-001	 -8.839550e+001	 8.581592e-002	 -1.365813e+001	
160956	 8.624416e-002	 -1.505903e+001	 9.208223e-001	 -8.925733e+001	 9.207325e-001	 -8.925159e+001	 8.584857e-002	 -1.418008e+001	
162513	 8.628695e-002	 -1.558454e+001	 9.204416e-001	 -9.010617e+001	 9.202588e-001	 -9.011379e+001	 8.588573e-002	 -1.465467e+001	
164069	 8.631027e-002	 -1.613036e+001	 9.200237e-001	 -9.097290e+001	 9.199922e-001	 -9.097103e+001	 8.591817e-002	 -1.518075e+001	
165625	 8.634254e-002	 -1.667832e+001	 9.197777e-001	 -9.182508e+001	 9.197468e-001	 -9.182324e+001	 8.592607e-002	 -1.569655e+001	
167181	 8.632129e-002	 -1.722254e+001	 9.190642e-001	 -9.271949e+001	 9.193992e-001	 -9.267661e+001	 8.592053e-002	 -1.622943e+001	
168738	 8.630411e-002	 -1.777579e+001	 9.187979e-001	 -9.356270e+001	 9.188418e-001	 -9.354537e+001	 8.592752e-002	 -1.672943e+001	
170294	 8.627205e-002	 -1.829949e+001	 9.185767e-001	 -9.440505e+001	 9.185833e-001	 -9.438593e+001	 8.587575e-002	 -1.723478e+001	
171850	 8.621979e-002	 -1.884855e+001	 9.181206e-001	 -9.528645e+001	 9.181392e-001	 -9.525765e+001	 8.584803e-002	 -1.777708e+001	
173406	 8.614665e-002	 -1.940491e+001	 9.177856e-001	 -9.613084e+001	 9.178267e-001	 -9.611907e+001	 8.577028e-002	 -1.829227e+001	
174963	 8.605495e-002	 -1.995785e+001	 9.175436e-001	 -9.699950e+001	 9.174003e-001	 -9.698907e+001	 8.569597e-002	 -1.881721e+001	
176519	 8.597663e-002	 -2.052148e+001	 9.169523e-001	 -9.786558e+001	 9.169877e-001	 -9.785373e+001	 8.561102e-002	 -1.935529e+001	
178075	 8.584526e-002	 -2.107183e+001	 9.166115e-001	 -9.872447e+001	 9.165838e-001	 -9.871317e+001	 8.548702e-002	 -1.987577e+001	
179631	 8.574297e-002	 -2.163187e+001	 9.161974e-001	 -9.959450e+001	 9.162065e-001	 -9.957499e+001	 8.535811e-002	 -2.039805e+001	
181188	 8.557307e-002	 -2.218361e+001	 9.160691e-001	 -1.004487e+002	 9.159649e-001	 -1.004343e+002	 8.523955e-002	 -2.093472e+001	
182744	 8.542655e-002	 -2.275541e+001	 9.153562e-001	 -1.013089e+002	 9.155356e-001	 -1.013067e+002	 8.508894e-002	 -2.146124e+001	
184300	 8.524280e-002	 -2.332278e+001	 9.154159e-001	 -1.021900e+002	 9.152663e-001	 -1.021647e+002	 8.489660e-002	 -2.198348e+001	
185856	 8.504079e-002	 -2.388361e+001	 9.147457e-001	 -1.030689e+002	 9.149187e-001	 -1.030310e+002	 8.470628e-002	 -2.254023e+001	
187413	 8.480699e-002	 -2.446224e+001	 9.144394e-001	 -1.039228e+002	 9.144399e-001	 -1.039070e+002	 8.450219e-002	 -2.303823e+001	
188969	 8.459119e-002	 -2.502103e+001	 9.140728e-001	 -1.047894e+002	 9.139329e-001	 -1.047562e+002	 8.426593e-002	 -2.359528e+001	
190525	 8.433939e-002	 -2.557399e+001	 9.136723e-001	 -1.056449e+002	 9.137404e-001	 -1.056318e+002	 8.402783e-002	 -2.412144e+001	
192081	 8.404601e-002	 -2.612649e+001	 9.133013e-001	 -1.065042e+002	 9.133663e-001	 -1.064910e+002	 8.375676e-002	 -2.463438e+001	
193638	 8.378278e-002	 -2.670729e+001	 9.129966e-001	 -1.073748e+002	 9.128438e-001	 -1.073698e+002	 8.350329e-002	 -2.517888e+001	
195194	 8.347175e-002	 -2.727933e+001	 9.123836e-001	 -1.082323e+002	 9.125178e-001	 -1.082456e+002	 8.321674e-002	 -2.571691e+001	
196750	 8.315237e-002	 -2.786753e+001	 9.122493e-001	 -1.091172e+002	 9.123220e-001	 -1.090953e+002	 8.289668e-002	 -2.624896e+001	
198306	 8.282645e-002	 -2.842403e+001	 9.119363e-001	 -1.099786e+002	 9.117800e-001	 -1.099740e+002	 8.253773e-002	 -2.676867e+001	
199863	 8.245388e-002	 -2.898759e+001	 9.115309e-001	 -1.108557e+002	 9.115364e-001	 -1.108351e+002	 8.223008e-002	 -2.730081e+001	
201419	 8.205828e-002	 -2.955022e+001	 9.110001e-001	 -1.117213e+002	 9.109326e-001	 -1.116899e+002	 8.185586e-002	 -2.782488e+001	
202975	 8.169393e-002	 -3.013043e+001	 9.107100e-001	 -1.125827e+002	 9.106163e-001	 -1.125685e+002	 8.145588e-002	 -2.835086e+001	
204531	 8.129694e-002	 -3.068290e+001	 9.105064e-001	 -1.134560e+002	 9.101201e-001	 -1.134289e+002	 8.106966e-002	 -2.887932e+001	
206088	 8.086389e-002	 -3.124692e+001	 9.100494e-001	 -1.143302e+002	 9.099790e-001	 -1.143110e+002	 8.066864e-002	 -2.939664e+001	
207644	 8.040517e-002	 -3.180934e+001	 9.096135e-001	 -1.152064e+002	 9.094087e-001	 -1.151699e+002	 8.023689e-002	 -2.989993e+001	
209200	 7.993860e-002	 -3.237570e+001	 9.092799e-001	 -1.160866e+002	 9.090118e-001	 -1.160521e+002	 7.975340e-002	 -3.044574e+001	
210756	 7.945338e-002	 -3.294456e+001	 9.087234e-001	 -1.169555e+002	 9.087185e-001	 -1.169124e+002	 7.932221e-002	 -3.097216e+001	
212313	 7.894449e-002	 -3.351569e+001	 9.086232e-001	 -1.178300e+002	 9.085034e-001	 -1.177992e+002	 7.881758e-002	 -3.146210e+001	
213869	 7.844213e-002	 -3.405784e+001	 9.079846e-001	 -1.186821e+002	 9.080275e-001	 -1.186630e+002	 7.832512e-002	 -3.198165e+001	
215425	 7.786997e-002	 -3.461871e+001	 9.076969e-001	 -1.195520e+002	 9.078499e-001	 -1.195377e+002	 7.779330e-002	 -3.248595e+001	
216981	 7.732016e-002	 -3.515936e+001	 9.072016e-001	 -1.204154e+002	 9.073377e-001	 -1.204148e+002	 7.726852e-002	 -3.300350e+001	
218538	 7.675477e-002	 -3.572330e+001	 9.069667e-001	 -1.213000e+002	 9.068809e-001	 -1.212763e+002	 7.667097e-002	 -3.349549e+001	
220094	 7.615222e-002	 -3.628114e+001	 9.066184e-001	 -1.222026e+002	 9.065254e-001	 -1.221425e+002	 7.613193e-002	 -3.398219e+001	
221650	 7.552947e-002	 -3.682006e+001	 9.063669e-001	 -1.230648e+002	 9.060854e-001	 -1.230304e+002	 7.554048e-002	 -3.448851e+001	
223206	 7.491999e-002	 -3.733102e+001	 9.056773e-001	 -1.239222e+002	 9.057445e-001	 -1.239007e+002	 7.491521e-002	 -3.499731e+001	
224763	 7.423775e-002	 -3.789203e+001	 9.054193e-001	 -1.248082e+002	 9.054456e-001	 -1.247835e+002	 7.427981e-002	 -3.544402e+001	
226319	 7.358313e-002	 -3.845468e+001	 9.048098e-001	 -1.256776e+002	 9.048156e-001	 -1.256582e+002	 7.363639e-002	 -3.594042e+001	
227875	 7.288877e-002	 -3.897231e+001	 9.048585e-001	 -1.265604e+002	 9.043483e-001	 -1.265363e+002	 7.297453e-002	 -3.639985e+001	
229431	 7.217410e-002	 -3.949356e+001	 9.041073e-001	 -1.274289e+002	 9.041785e-001	 -1.274157e+002	 7.230566e-002	 -3.688794e+001	
230988	 7.143770e-002	 -4.001994e+001	 9.040000e-001	 -1.283212e+002	 9.039168e-001	 -1.282958e+002	 7.160023e-002	 -3.732616e+001	
232544	 7.070406e-002	 -4.053731e+001	 9.031469e-001	 -1.291935e+002	 9.033536e-001	 -1.291728e+002	 7.088193e-002	 -3.778780e+001	
234100	 6.991796e-002	 -4.105116e+001	 9.028940e-001	 -1.300666e+002	 9.027911e-001	 -1.300468e+002	 7.013328e-002	 -3.820998e+001	
235656	 6.913194e-002	 -4.154274e+001	 9.027057e-001	 -1.309531e+002	 9.026440e-001	 -1.309309e+002	 6.936938e-002	 -3.866194e+001	
237213	 6.830746e-002	 -4.203128e+001	 9.020643e-001	 -1.318154e+002	 9.020691e-001	 -1.318100e+002	 6.861344e-002	 -3.907437e+001	
238769	 6.751529e-002	 -4.252803e+001	 9.018785e-001	 -1.326905e+002	 9.017439e-001	 -1.326984e+002	 6.783066e-002	 -3.951293e+001	
240325	 6.667195e-002	 -4.302569e+001	 9.016364e-001	 -1.335871e+002	 9.014697e-001	 -1.335704e+002	 6.702528e-002	 -3.993196e+001	
241881	 6.580883e-002	 -4.351550e+001	 9.011406e-001	 -1.344755e+002	 9.011011e-001	 -1.344508e+002	 6.620094e-002	 -4.032795e+001	
243438	 6.492484e-002	 -4.396079e+001	 9.008592e-001	 -1.353318e+002	 9.006873e-001	 -1.353374e+002	 6.535543e-002	 -4.071925e+001	
244994	 6.404354e-002	 -4.441953e+001	 9.005784e-001	 -1.362354e+002	 9.004389e-001	 -1.362054e+002	 6.451080e-002	 -4.107987e+001	
